T2B70 144:916 SEGGER J-Link V4.90 Log File (0000ms, 6268ms total)
T2B70 144:916 DLL Compiled: Jul 28 2014 10:35:20 (0000ms, 6268ms total)
T2B70 144:916 Logging started @ 2023-06-03 12:29 (0000ms, 6268ms total)
T2B70 144:916 JLINK_SetWarnOutHandler(...) (0000ms, 6268ms total)
T2B70 144:916 JLINK_OpenEx(...)
Firmware: J-Link V9 compiled May  7 2021 16:26:12
Hardware: V9.70
S/N: 59701278
Feature(s): RDI, GDB, FlashDL, FlashBP, JFlash  returns O.K. (0267ms, 6535ms total)
T2B70 145:184 JLINK_GetEmuCaps()  returns 0xB9FF7BBF (0000ms, 6535ms total)
T2B70 145:184 JLINK_TIF_GetAvailable(...) (0001ms, 6536ms total)
T2B70 145:185 JLINK_SetErrorOutHandler(...) (0000ms, 6536ms total)
T2B70 145:185 JLINK_ExecCommand("ProjectFile = "E:\Users\daiyu\Desktop\STM32\±ÏÒµÉè¼Æ\USER\JLinkSettings.ini"", ...)  returns 0x00 (0001ms, 6537ms total)
T2B70 145:186 JLINK_ExecCommand("Device = STM32F427II", ...)Device "STM32F427II" selected (2048 KB flash, 192 KB RAM).  returns 0x00 (0002ms, 6539ms total)
T2B70 145:188 JLINK_ExecCommand("DisableConnectionTimeout", ...)  returns 0x01 (0000ms, 6539ms total)
T2B70 145:188 JLINK_GetHardwareVersion()  returns 0x17AE8 (0000ms, 6539ms total)
T2B70 145:188 JLINK_GetDLLVersion()  returns 49000 (0000ms, 6539ms total)
T2B70 145:188 JLINK_GetFirmwareString(...) (0000ms, 6539ms total)
T2B70 145:188 JLINK_GetDLLVersion()  returns 49000 (0000ms, 6539ms total)
T2B70 145:188 JLINK_GetCompileDateTime() (0000ms, 6539ms total)
T2B70 145:188 JLINK_GetFirmwareString(...) (0000ms, 6539ms total)
T2B70 145:188 JLINK_GetHardwareVersion()  returns 0x17AE8 (0000ms, 6539ms total)
T2B70 145:188 JLINK_TIF_Select(JLINKARM_TIF_SWD)  returns 0x00 (0002ms, 6541ms total)
T2B70 145:190 JLINK_SetSpeed(5000) (0000ms, 6541ms total)
T2B70 145:190 JLINK_GetId() >0x108 TIF>Found SWD-DP with ID 0x2BA01477 >0x0D TIF> >0x28 TIF> >0x0D TIF> >0x28 TIF> >0x0D TIF> >0x21 TIF> >0x0D TIF> >0x28 TIF> >0x0D TIF> >0x28 TIF> >0x0D TIF> >0x28 TIF> >0x0D TIF> >0x21 TIF> >0x0D TIF> >0x21 TIF> >0x0D TIF> >0x28 TIF> >0x0D TIF> >0x21 TIF> >0x0D TIF> >0x21 TIF> >0x0D TIF> >0x28 TIF> >0x0D TIF> >0x21 TIF> >0x0D TIF> >0x21 TIF> >0x108 TIF>Found SWD-DP with ID 0x2BA01477 >0x0D TIF> >0x21 TIF> >0x0D TIF> >0x28 TIF> >0x0D TIF> >0x28 TIF> >0x0D TIF> >0x21 TIF>
 >0x0D TIF> >0x28 TIF> >0x0D TIF> >0x21 TIF> >0x0D TIF> >0x21 TIF> >0x0D TIF> >0x21 TIF> >0x0D TIF> >0x21 TIF> >0x0D TIF> >0x28 TIF> >0x0D TIF> >0x28 TIF> >0x0D TIF> >0x21 TIF> >0x0D TIF> >0x28 TIF> >0x0D TIF> >0x28 TIF> >0x0D TIF> >0x28 TIF> >0x0D TIF> >0x21 TIF> >0x0D TIF> >0x21 TIF> >0x0D TIF> >0x28 TIF> >0x0D TIF> >0x21 TIF> >0x0D TIF> >0x21 TIF>Found Cortex-M4 r0p1, Little endian. -- CPU_WriteMem(4 bytes @ 0xE0002000) -- CPU_ReadMem(4 bytes @ 0xE000EDF0) -- CPU_ReadMem(4 bytes @ 0xE0002000)
FPUnit: 6 code (BP) slots and 2 literal slots -- CPU_ReadMem(4 bytes @ 0xE000EDFC) -- CPU_ReadMem(4 bytes @ 0xE0001000) -- CPU_WriteMem(4 bytes @ 0xE0001000) -- CPU_ReadMem(4 bytes @ 0xE00FF010)TPIU fitted. -- CPU_ReadMem(4 bytes @ 0xE00FF014)ETM fitted. -- CPU_ReadMem(4 bytes @ 0xE00FF018) >0x0D TIF> >0x21 TIF>  returns 0x2BA01477 (0028ms, 6569ms total)
T2B70 145:218 JLINK_GetDLLVersion()  returns 49000 (0000ms, 6569ms total)
T2B70 145:218 JLINK_CORE_GetFound()  returns 0xE0000FF (0001ms, 6570ms total)
T2B70 145:219 JLINK_GetDebugInfo(0x100) -- Value=0xE00FF003  returns 0x00 (0000ms, 6570ms total)
T2B70 145:219 JLINK_GetDebugInfo(0x101)  returns 0xFFFFFFFF (0000ms, 6570ms total)
T2B70 145:219 JLINK_ReadMemEx(0xE0041FF0, 0x0010 Bytes, ..., AccessWidth = 33554436) -- CPU is running -- CPU_ReadMem(16 bytes @ 0xE0041FF0) - Data: 0D 00 00 00 90 00 00 00 05 00 00 00 B1 00 00 00  returns 0x10 (0000ms, 6570ms total)
T2B70 145:219 JLINK_ReadMemEx(0xE0041FD0, 0x0020 Bytes, ..., AccessWidth = 33554436) -- CPU is running -- CPU_ReadMem(32 bytes @ 0xE0041FD0) - Data: 04 00 00 00 00 00 00 00 00 00 00 00 00 00 00 00 ...  returns 0x20 (0001ms, 6571ms total)
T2B70 145:220 JLINK_GetDebugInfo(0x102)  returns 0xFFFFFFFF (0000ms, 6571ms total)
T2B70 145:220 JLINK_GetDebugInfo(0x103)  returns 0xFFFFFFFF (0000ms, 6571ms total)
T2B70 145:220 JLINK_ReadMemEx(0xE0040FF0, 0x0010 Bytes, ..., AccessWidth = 33554436) -- CPU is running -- CPU_ReadMem(16 bytes @ 0xE0040FF0) - Data: 0D 00 00 00 90 00 00 00 05 00 00 00 B1 00 00 00  returns 0x10 (0000ms, 6571ms total)
T2B70 145:220 JLINK_GetDebugInfo(0x104)  returns 0xFFFFFFFF (0000ms, 6571ms total)
T2B70 145:220 JLINK_GetDebugInfo(0x105)  returns 0xFFFFFFFF (0000ms, 6571ms total)
T2B70 145:220 JLINK_GetDebugInfo(0x106)  returns 0xFFFFFFFF (0000ms, 6571ms total)
T2B70 145:220 JLINK_GetDebugInfo(0x107)  returns 0xFFFFFFFF (0000ms, 6571ms total)
T2B70 145:220 JLINK_GetDebugInfo(0x10C)  returns 0xFFFFFFFF (0000ms, 6571ms total)
T2B70 145:220 JLINK_GetDebugInfo(0x01)  returns 0xFFFFFFFF (0000ms, 6571ms total)
T2B70 145:220 JLINK_GetDeviceFamily()  returns 14 (0000ms, 6571ms total)
T2B70 145:220 JLINK_ReadMemU32(0xE000ED00, 0x0001 Items, ...) -- CPU is running -- CPU_ReadMem(4 bytes @ 0xE000ED00) - Data: 41 C2 0F 41  returns 0x01 (0001ms, 6572ms total)
T2B70 145:221 JLINK_GetDebugInfo(0x10F)  returns 0xFFFFFFFF (0000ms, 6572ms total)
T2B70 145:221 JLINK_SetResetType(JLINKARM_RESET_TYPE_NORMAL)  returns JLINKARM_RESET_TYPE_NORMAL (0000ms, 6572ms total)
T2B70 145:221 JLINK_Reset() -- CPU is running -- CPU_WriteMem(4 bytes @ 0xE000EDF0) -- CPU is running -- CPU_WriteMem(4 bytes @ 0xE000EDFC) >0x35 TIF> -- CPU is running -- CPU_WriteMem(4 bytes @ 0xE000ED0C) -- CPU is running -- CPU_ReadMem(4 bytes @ 0xE000EDF0) -- CPU is running -- CPU_ReadMem(4 bytes @ 0xE000EDF0) -- CPU is running -- CPU_ReadMem(4 bytes @ 0xE000EDF0) -- CPU is running -- CPU_WriteMem(4 bytes @ 0xE000EDF0) -- CPU is running -- CPU_WriteMem(4 bytes @ 0xE000EDFC) -- CPU is running
 -- CPU_ReadMem(4 bytes @ 0xE000EDF0) -- CPU_WriteMem(4 bytes @ 0xE0002000) -- CPU_ReadMem(4 bytes @ 0xE000EDFC) -- CPU_ReadMem(4 bytes @ 0xE0001000) (0017ms, 6589ms total)
T2B70 145:238 JLINK_ReadReg(R15 (PC))  returns 0x08003AB8 (0000ms, 6589ms total)
T2B70 145:238 JLINK_ReadReg(XPSR)  returns 0x01000000 (0000ms, 6589ms total)
T2B70 145:238 JLINK_Halt()  returns 0x00 (0000ms, 6589ms total)
T2B70 145:238 JLINK_ReadMemU32(0xE000EDF0, 0x0001 Items, ...) -- CPU_ReadMem(4 bytes @ 0xE000EDF0) - Data: 03 00 03 00  returns 0x01 (0000ms, 6589ms total)
T2B70 145:238 JLINK_WriteU32(0xE000EDF0, 0xA05F0003) -- CPU_WriteMem(4 bytes @ 0xE000EDF0)  returns 0x00 (0001ms, 6590ms total)
T2B70 145:239 JLINK_WriteU32(0xE000EDFC, 0x01000000) -- CPU_WriteMem(4 bytes @ 0xE000EDFC)  returns 0x00 (0000ms, 6590ms total)
T2B70 145:239 JLINK_GetHWStatus(...)  returns 0x00 (0000ms, 6590ms total)
T2B70 145:240 JLINK_GetNumBPUnits(Type = 0xFFFFFF00)  returns 0x06 (0000ms, 6590ms total)
T2B70 145:240 JLINK_GetNumBPUnits(Type = 0xF0)  returns 0x2000 (0000ms, 6590ms total)
T2B70 145:240 JLINK_GetNumWPUnits()  returns 0x04 (0000ms, 6590ms total)
T2B70 145:240 JLINK_GetSpeed()  returns 0xFA0 (0000ms, 6590ms total)
T2B70 145:240 JLINK_ReadMemU32(0xE000E004, 0x0001 Items, ...) -- CPU_ReadMem(4 bytes @ 0xE000E004) - Data: 02 00 00 00  returns 0x01 (0000ms, 6590ms total)
T2B70 145:240 JLINK_ReadMemU32(0xE000E004, 0x0001 Items, ...) -- CPU_ReadMem(4 bytes @ 0xE000E004) - Data: 02 00 00 00  returns 0x01 (0001ms, 6591ms total)
T2B70 145:241 JLINK_WriteMemEx(0xE0001000, 0x001C Bytes, ..., AccessWidth = 33554436) - Data: 01 00 00 00 00 00 00 00 00 00 00 00 00 00 00 00 ... -- CPU_WriteMem(28 bytes @ 0xE0001000)  returns 0x1C (0000ms, 6591ms total)
T2B70 145:241 JLINK_ReadReg(R15 (PC))  returns 0x08003AB8 (0000ms, 6591ms total)
T2B70 145:241 JLINK_ReadReg(XPSR)  returns 0x01000000 (0000ms, 6591ms total)
T2B70 145:241 JLINK_WriteU32(0xE0041FB0, 0xC5ACCE55) -- CPU_WriteMem(4 bytes @ 0xE0041FB0)  returns 0x00 (0001ms, 6592ms total)
T2B70 145:242 JLINK_ReadMemU32(0xE0041000, 0x0001 Items, ...) -- CPU_ReadMem(4 bytes @ 0xE0041000) - Data: 01 00 00 00  returns 0x01 (0000ms, 6592ms total)
T2B70 145:242 JLINK_WriteU32(0xE0041000, 0x00000000) -- CPU_WriteMem(4 bytes @ 0xE0041000)  returns 0x00 (0001ms, 6593ms total)
T2B70 145:251 JLINK_SWO_Control(JLINKARM_SWO_CMD_GET_SPEED_INFO, ...)  returns 0x00 (0000ms, 6593ms total)
T2B70 145:251 JLINK_SWO_Control(JLINKARM_SWO_CMD_STOP, ...)  returns 0x00 (0000ms, 6593ms total)
T2B70 145:251 JLINK_SWO_Control(JLINKARM_SWO_CMD_START, ...) -- UART -- 5000000bps -- CPU_ReadMem(4 bytes @ 0xE0042004)  returns 0x00 (0002ms, 6595ms total)
T2B70 145:253 JLINK_WriteU32(0xE0040004, 0x00000001) -- CPU_WriteMem(4 bytes @ 0xE0040004)  returns 0x00 (0000ms, 6595ms total)
T2B70 145:253 JLINK_WriteU32(0xE0040010, 0x00000001) -- CPU_WriteMem(4 bytes @ 0xE0040010)  returns 0x00 (0001ms, 6596ms total)
T2B70 145:254 JLINK_WriteU32(0xE00400F0, 0x00000002) -- CPU_WriteMem(4 bytes @ 0xE00400F0)  returns 0x00 (0000ms, 6596ms total)
T2B70 145:254 JLINK_WriteU32(0xE0040304, 0x00000000) -- CPU_WriteMem(4 bytes @ 0xE0040304)  returns 0x00 (0001ms, 6597ms total)
T2B70 145:255 JLINK_WriteU32(0xE0000FB0, 0xC5ACCE55) -- CPU_WriteMem(4 bytes @ 0xE0000FB0)  returns 0x00 (0000ms, 6597ms total)
T2B70 145:255 JLINK_WriteU32(0xE0000E80, 0x0001000D) -- CPU_WriteMem(4 bytes @ 0xE0000E80)  returns 0x00 (0001ms, 6598ms total)
T2B70 145:256 JLINK_WriteU32(0xE0000E00, 0xFFFFFFFF) -- CPU_WriteMem(4 bytes @ 0xE0000E00)  returns 0x00 (0000ms, 6598ms total)
T2B70 145:256 JLINK_WriteU32(0xE0000E40, 0x00000008) -- CPU_WriteMem(4 bytes @ 0xE0000E40)  returns 0x00 (0000ms, 6598ms total)
T2B70 145:256 JLINK_WriteU32(0xE0001000, 0x0001061F) -- CPU_WriteMem(4 bytes @ 0xE0001000)  returns 0x00 (0001ms, 6599ms total)
T2B70 145:282 JLINK_ReadMemEx(0xE0001004, 0x0004 Bytes, ..., AccessWidth = 33554432)Mis-aligned memory read: Address: 0xE0001004, NumBytes: 4, Alignment: 2 (Halfword-aligned)
  ***** Mis-aligned memory read: Address: 0xE0001004, NumBytes: 4, Alignment: 2 (Halfword-aligned) -- CPU_ReadMem(4 bytes @ 0xE0001004) - Data: 00 00 00 00  returns 0x04 (0001ms, 6600ms total)
T2B70 145:468 JLINK_SetResetType(JLINKARM_RESET_TYPE_NORMAL)  returns JLINKARM_RESET_TYPE_NORMAL (0000ms, 6600ms total)
T2B70 145:468 JLINK_Reset() -- CPU_WriteMem(4 bytes @ 0xE000EDF0) -- CPU_WriteMem(4 bytes @ 0xE000EDFC) >0x35 TIF> -- CPU_WriteMem(4 bytes @ 0xE000ED0C) -- CPU_ReadMem(4 bytes @ 0xE000EDF0) -- CPU_ReadMem(4 bytes @ 0xE000EDF0) -- CPU_WriteMem(4 bytes @ 0xE000EDF0) -- CPU_WriteMem(4 bytes @ 0xE000EDFC) -- CPU is running -- CPU_ReadMem(4 bytes @ 0xE000EDF0) -- CPU_WriteMem(4 bytes @ 0xE0002000) -- CPU_ReadMem(4 bytes @ 0xE000EDFC) -- CPU_ReadMem(4 bytes @ 0xE0001000) (0017ms, 6617ms total)
T2B70 145:485 JLINK_WriteU32(0xE000EDFC, 0x01000000) -- CPU_WriteMem(4 bytes @ 0xE000EDFC)  returns 0x00 (0001ms, 6618ms total)
T2B70 145:486 JLINK_ReadReg(R15 (PC))  returns 0x08003AB8 (0000ms, 6618ms total)
T2B70 145:486 JLINK_ReadReg(XPSR)  returns 0x01000000 (0000ms, 6618ms total)
T2B70 145:492 JLINK_ReadMemEx(0x080039B8, 0x003C Bytes, ..., AccessWidth = 33554432)Mis-aligned memory read: Address: 0x080039B8, NumBytes: 60, Alignment: 2 (Halfword-aligned)
  ***** Mis-aligned memory read: Address: 0x080039B8, NumBytes: 60, Alignment: 2 (Halfword-aligned) -- CPU_ReadMem(128 bytes @ 0x08003980) -- Updating C cache (128 bytes @ 0x08003980) -- Read from C cache (60 bytes @ 0x080039B8) - Data: 94 FB F0 F1 00 FB 11 40 84 B2 4F F4 7A 71 04 FB ...  returns 0x3C (0001ms, 6619ms total)
T2B70 145:494 JLINK_ReadMemEx(0x080039F4, 0x003C Bytes, ..., AccessWidth = 33554432)Mis-aligned memory read: Address: 0x080039F4, NumBytes: 60, Alignment: 2 (Halfword-aligned)
  ***** Mis-aligned memory read: Address: 0x080039F4, NumBytes: 60, Alignment: 2 (Halfword-aligned) -- CPU_ReadMem(64 bytes @ 0x08003A00) -- Updating C cache (64 bytes @ 0x08003A00) -- Read from C cache (60 bytes @ 0x080039F4) - Data: 00 20 70 47 01 46 00 BF 00 20 70 47 C2 B2 29 4B ...  returns 0x3C (0001ms, 6620ms total)
T2B70 145:495 JLINK_ReadMemEx(0x08003A30, 0x003C Bytes, ..., AccessWidth = 33554432)Mis-aligned memory read: Address: 0x08003A30, NumBytes: 60, Alignment: 2 (Halfword-aligned)
  ***** Mis-aligned memory read: Address: 0x08003A30, NumBytes: 60, Alignment: 2 (Halfword-aligned) -- CPU_ReadMem(64 bytes @ 0x08003A40) -- Updating C cache (64 bytes @ 0x08003A40) -- Read from C cache (60 bytes @ 0x08003A30) - Data: 09 21 1E 48 00 F0 E1 F9 08 22 0E 21 1B 48 00 F0 ...  returns 0x3C (0001ms, 6621ms total)
T2B70 145:496 JLINK_ReadMemEx(0x08003A6C, 0x003C Bytes, ..., AccessWidth = 33554432)Mis-aligned memory read: Address: 0x08003A6C, NumBytes: 60, Alignment: 2 (Halfword-aligned)
  ***** Mis-aligned memory read: Address: 0x08003A6C, NumBytes: 60, Alignment: 2 (Halfword-aligned) -- CPU_ReadMem(64 bytes @ 0x08003A80) -- Updating C cache (64 bytes @ 0x08003A80) -- Read from C cache (60 bytes @ 0x08003A6C) - Data: 04 00 AD F8 06 00 AD F8 08 00 AD F8 0C 00 0C 20 ...  returns 0x3C (0002ms, 6623ms total)
T2B70 145:499 JLINK_ReadMemEx(0x08003AB6, 0x0002 Bytes, ..., AccessWidth = 33554432)Mis-aligned memory read: Address: 0x08003AB6, NumBytes: 2, Alignment: 2 (Halfword-aligned)
  ***** Mis-aligned memory read: Address: 0x08003AB6, NumBytes: 2, Alignment: 2 (Halfword-aligned) -- Read from C cache (2 bytes @ 0x08003AB6) - Data: 01 40  returns 0x02 (0000ms, 6623ms total)
T2B70 145:499 JLINK_ReadMemEx(0x08003AB8, 0x003C Bytes, ..., AccessWidth = 33554432)Mis-aligned memory read: Address: 0x08003AB8, NumBytes: 60, Alignment: 2 (Halfword-aligned)
  ***** Mis-aligned memory read: Address: 0x08003AB8, NumBytes: 60, Alignment: 2 (Halfword-aligned) -- CPU_ReadMem(64 bytes @ 0x08003AC0) -- Updating C cache (64 bytes @ 0x08003AC0) -- Read from C cache (60 bytes @ 0x08003AB8) - Data: 09 48 80 47 09 48 00 47 FE E7 FE E7 FE E7 FE E7 ...  returns 0x3C (0001ms, 6624ms total)
T2B70 145:754 JLINK_WriteU32(0xE0001008, 0x00000000) -- CPU_WriteMem(4 bytes @ 0xE0001008)  returns 0x00 (0000ms, 6624ms total)
T2B70 145:754 JLINK_WriteU32(0xE000100C, 0x00000000) -- CPU_WriteMem(4 bytes @ 0xE000100C)  returns 0x00 (0001ms, 6625ms total)
T2B70 145:755 JLINK_WriteU32(0xE0001010, 0x00000000) -- CPU_WriteMem(4 bytes @ 0xE0001010)  returns 0x00 (0001ms, 6626ms total)
T2B70 145:756 JLINK_WriteU32(0xE0001014, 0x00000000) -- CPU_WriteMem(4 bytes @ 0xE0001014)  returns 0x00 (0000ms, 6626ms total)
T2B70 145:756 JLINK_WriteU32(0xE0001018, 0x00000000) -- CPU_WriteMem(4 bytes @ 0xE0001018)  returns 0x00 (0000ms, 6626ms total)
T2B70 148:453 JLINK_ReadReg(R0)  returns 0x00000000 (0001ms, 6627ms total)
T2B70 148:454 JLINK_ReadReg(R1)  returns 0x00000000 (0000ms, 6627ms total)
T2B70 148:454 JLINK_ReadReg(R2)  returns 0x00000000 (0000ms, 6627ms total)
T2B70 148:454 JLINK_ReadReg(R3)  returns 0x00000000 (0000ms, 6627ms total)
T2B70 148:454 JLINK_ReadReg(R4)  returns 0x00000000 (0000ms, 6627ms total)
T2B70 148:454 JLINK_ReadReg(R5)  returns 0x00000000 (0000ms, 6627ms total)
T2B70 148:454 JLINK_ReadReg(R6)  returns 0x00000000 (0000ms, 6627ms total)
T2B70 148:454 JLINK_ReadReg(R7)  returns 0x00000000 (0000ms, 6627ms total)
T2B70 148:454 JLINK_ReadReg(R8)  returns 0x00000000 (0000ms, 6627ms total)
T2B70 148:454 JLINK_ReadReg(R9)  returns 0x00000000 (0000ms, 6627ms total)
T2B70 148:454 JLINK_ReadReg(R10)  returns 0x00000000 (0000ms, 6627ms total)
T2B70 148:454 JLINK_ReadReg(R11)  returns 0x00000000 (0000ms, 6627ms total)
T2B70 148:454 JLINK_ReadReg(R12)  returns 0x00000000 (0000ms, 6627ms total)
T2B70 148:454 JLINK_ReadReg(R13 (SP))  returns 0x20014A88 (0000ms, 6627ms total)
T2B70 148:454 JLINK_ReadReg(R14)  returns 0xFFFFFFFF (0000ms, 6627ms total)
T2B70 148:454 JLINK_ReadReg(R15 (PC))  returns 0x08003AB8 (0000ms, 6627ms total)
T2B70 148:454 JLINK_ReadReg(XPSR)  returns 0x01000000 (0000ms, 6627ms total)
T2B70 148:454 JLINK_ReadReg(MSP)  returns 0x20014A88 (0000ms, 6627ms total)
T2B70 148:454 JLINK_ReadReg(PSP)  returns 0x00000000 (0000ms, 6627ms total)
T2B70 148:454 JLINK_ReadReg(CFBP)  returns 0x00000000 (0000ms, 6627ms total)
T2B70 148:454 JLINK_ReadReg(FPSCR)  returns 0x00000000 (0004ms, 6631ms total)
T2B70 148:458 JLINK_ReadReg(FPS0)  returns 0x00000000 (0000ms, 6631ms total)
T2B70 148:458 JLINK_ReadReg(FPS1)  returns 0x00000000 (0000ms, 6631ms total)
T2B70 148:458 JLINK_ReadReg(FPS2)  returns 0x00000000 (0000ms, 6631ms total)
T2B70 148:458 JLINK_ReadReg(FPS3)  returns 0x00000000 (0000ms, 6631ms total)
T2B70 148:458 JLINK_ReadReg(FPS4)  returns 0x00000000 (0000ms, 6631ms total)
T2B70 148:458 JLINK_ReadReg(FPS5)  returns 0x00000000 (0000ms, 6631ms total)
T2B70 148:458 JLINK_ReadReg(FPS6)  returns 0x00000000 (0000ms, 6631ms total)
T2B70 148:458 JLINK_ReadReg(FPS7)  returns 0x00000000 (0000ms, 6631ms total)
T2B70 148:458 JLINK_ReadReg(FPS8)  returns 0x00000000 (0000ms, 6631ms total)
T2B70 148:458 JLINK_ReadReg(FPS9)  returns 0x00000000 (0000ms, 6631ms total)
T2B70 148:459 JLINK_ReadReg(FPS10)  returns 0x00000000 (0000ms, 6632ms total)
T2B70 148:459 JLINK_ReadReg(FPS11)  returns 0x00000000 (0000ms, 6632ms total)
T2B70 148:459 JLINK_ReadReg(FPS12)  returns 0x00000000 (0000ms, 6632ms total)
T2B70 148:459 JLINK_ReadReg(FPS13)  returns 0x00000000 (0000ms, 6632ms total)
T2B70 148:459 JLINK_ReadReg(FPS14)  returns 0x00000000 (0000ms, 6632ms total)
T2B70 148:459 JLINK_ReadReg(FPS15)  returns 0x00000000 (0000ms, 6632ms total)
T2B70 148:459 JLINK_ReadReg(FPS16)  returns 0x00000000 (0000ms, 6632ms total)
T2B70 148:459 JLINK_ReadReg(FPS17)  returns 0x00000000 (0000ms, 6632ms total)
T2B70 148:459 JLINK_ReadReg(FPS18)  returns 0x00000000 (0000ms, 6632ms total)
T2B70 148:459 JLINK_ReadReg(FPS19)  returns 0x00000000 (0000ms, 6632ms total)
T2B70 148:459 JLINK_ReadReg(FPS20)  returns 0x00000000 (0000ms, 6632ms total)
T2B70 148:459 JLINK_ReadReg(FPS21)  returns 0x00000000 (0000ms, 6632ms total)
T2B70 148:459 JLINK_ReadReg(FPS22)  returns 0x00000000 (0000ms, 6632ms total)
T2B70 148:459 JLINK_ReadReg(FPS23)  returns 0x00000000 (0000ms, 6632ms total)
T2B70 148:459 JLINK_ReadReg(FPS24)  returns 0x00000000 (0000ms, 6632ms total)
T2B70 148:459 JLINK_ReadReg(FPS25)  returns 0x00000000 (0000ms, 6632ms total)
T2B70 148:459 JLINK_ReadReg(FPS26)  returns 0x00000000 (0000ms, 6632ms total)
T2B70 148:459 JLINK_ReadReg(FPS27)  returns 0x00000000 (0000ms, 6632ms total)
T2B70 148:459 JLINK_ReadReg(FPS28)  returns 0x00000000 (0000ms, 6632ms total)
T2B70 148:459 JLINK_ReadReg(FPS29)  returns 0x00000000 (0000ms, 6632ms total)
T2B70 148:459 JLINK_ReadReg(FPS30)  returns 0x00000000 (0000ms, 6632ms total)
T2B70 148:459 JLINK_ReadReg(FPS31)  returns 0x00000000 (0000ms, 6632ms total)
T2B70 148:494 JLINK_ReadMemEx(0x20000124, 0x0004 Bytes, ..., AccessWidth = 33554432)Mis-aligned memory read: Address: 0x20000124, NumBytes: 4, Alignment: 2 (Halfword-aligned)
  ***** Mis-aligned memory read: Address: 0x20000124, NumBytes: 4, Alignment: 2 (Halfword-aligned) -- CPU_ReadMem(64 bytes @ 0x20000100) -- Updating C cache (64 bytes @ 0x20000100) -- Read from C cache (4 bytes @ 0x20000124) - Data: 38 00 00 00  returns 0x04 (0001ms, 6633ms total)
T2B70 148:511 JLINK_ReadMemEx(0x20000516, 0x0020 Bytes, ..., AccessWidth = 33554432)Mis-aligned memory read: Address: 0x20000516, NumBytes: 32, Alignment: 2 (Halfword-aligned)
  ***** Mis-aligned memory read: Address: 0x20000516, NumBytes: 32, Alignment: 2 (Halfword-aligned) -- CPU_ReadMem(64 bytes @ 0x20000500) -- Updating C cache (64 bytes @ 0x20000500) -- Read from C cache (32 bytes @ 0x20000516) - Data: 00 00 00 00 00 00 00 00 00 00 00 00 00 00 00 00 ...  returns 0x20 (0001ms, 6634ms total)
T2B70 148:520 JLINK_ReadMemEx(0x200004FC, 0x000D Bytes, ..., AccessWidth = 33554432)Mis-aligned memory read: Address: 0x200004FC, NumBytes: 13, Alignment: 2 (Halfword-aligned)
  ***** Mis-aligned memory read: Address: 0x200004FC, NumBytes: 13, Alignment: 2 (Halfword-aligned) -- CPU_ReadMem(64 bytes @ 0x200004C0) -- Updating C cache (64 bytes @ 0x200004C0) -- Read from C cache (13 bytes @ 0x200004FC) - Data: 00 00 00 00 00 00 00 00 00 00 00 00 00  returns 0x0D (0001ms, 6635ms total)
T2B70 148:533 JLINK_ReadMemEx(0x20000509, 0x000D Bytes, ..., AccessWidth = 33554432)Mis-aligned memory read: Address: 0x20000509, NumBytes: 13, Alignment: 2 (Halfword-aligned)
  ***** Mis-aligned memory read: Address: 0x20000509, NumBytes: 13, Alignment: 2 (Halfword-aligned) -- Read from C cache (13 bytes @ 0x20000509) - Data: 00 00 00 00 00 00 00 00 00 00 00 00 00  returns 0x0D (0000ms, 6635ms total)
T2B70 148:545 JLINK_ReadMemEx(0x20000146, 0x0002 Bytes, ..., AccessWidth = 33554432)Mis-aligned memory read: Address: 0x20000146, NumBytes: 2, Alignment: 2 (Halfword-aligned)
  ***** Mis-aligned memory read: Address: 0x20000146, NumBytes: 2, Alignment: 2 (Halfword-aligned) -- CPU_ReadMem(64 bytes @ 0x20000140) -- Updating C cache (64 bytes @ 0x20000140) -- Read from C cache (2 bytes @ 0x20000146) - Data: 00 00  returns 0x02 (0001ms, 6636ms total)
T2B70 148:554 JLINK_ReadMemEx(0x2000014C, 0x0001 Bytes, ..., AccessWidth = 33554432)Mis-aligned memory read: Address: 0x2000014C, NumBytes: 1, Alignment: 2 (Halfword-aligned)
  ***** Mis-aligned memory read: Address: 0x2000014C, NumBytes: 1, Alignment: 2 (Halfword-aligned) -- Read from C cache (1 bytes @ 0x2000014C) - Data: 01  returns 0x01 (0000ms, 6636ms total)
T2B70 148:565 JLINK_ReadMemEx(0x20000148, 0x0002 Bytes, ..., AccessWidth = 33554432)Mis-aligned memory read: Address: 0x20000148, NumBytes: 2, Alignment: 2 (Halfword-aligned)
  ***** Mis-aligned memory read: Address: 0x20000148, NumBytes: 2, Alignment: 2 (Halfword-aligned) -- Read from C cache (2 bytes @ 0x20000148) - Data: 00 00  returns 0x02 (0000ms, 6636ms total)
T2B70 148:576 JLINK_ReadMemEx(0x2000014D, 0x0001 Bytes, ..., AccessWidth = 33554432)Mis-aligned memory read: Address: 0x2000014D, NumBytes: 1, Alignment: 2 (Halfword-aligned)
  ***** Mis-aligned memory read: Address: 0x2000014D, NumBytes: 1, Alignment: 2 (Halfword-aligned) -- Read from C cache (1 bytes @ 0x2000014D) - Data: 01  returns 0x01 (0000ms, 6636ms total)
T2B70 148:589 JLINK_ReadMemEx(0x2000014E, 0x0001 Bytes, ..., AccessWidth = 33554432)Mis-aligned memory read: Address: 0x2000014E, NumBytes: 1, Alignment: 2 (Halfword-aligned)
  ***** Mis-aligned memory read: Address: 0x2000014E, NumBytes: 1, Alignment: 2 (Halfword-aligned) -- Read from C cache (1 bytes @ 0x2000014E) - Data: 00  returns 0x01 (0000ms, 6636ms total)
T2B70 148:603 JLINK_ReadMemEx(0x2000014A, 0x0002 Bytes, ..., AccessWidth = 33554432)Mis-aligned memory read: Address: 0x2000014A, NumBytes: 2, Alignment: 2 (Halfword-aligned)
  ***** Mis-aligned memory read: Address: 0x2000014A, NumBytes: 2, Alignment: 2 (Halfword-aligned) -- Read from C cache (2 bytes @ 0x2000014A) - Data: F9 17  returns 0x02 (0000ms, 6636ms total)
T2B70 148:630 JLINK_ReadMemEx(0x200001A8, 0x0004 Bytes, ..., AccessWidth = 33554432)Mis-aligned memory read: Address: 0x200001A8, NumBytes: 4, Alignment: 2 (Halfword-aligned)
  ***** Mis-aligned memory read: Address: 0x200001A8, NumBytes: 4, Alignment: 2 (Halfword-aligned) -- CPU_ReadMem(64 bytes @ 0x20000180) -- Updating C cache (64 bytes @ 0x20000180) -- Read from C cache (4 bytes @ 0x200001A8) - Data: 00 00 00 00  returns 0x04 (0001ms, 6637ms total)
T2B70 148:643 JLINK_ReadMemEx(0x200001A4, 0x0004 Bytes, ..., AccessWidth = 33554432)Mis-aligned memory read: Address: 0x200001A4, NumBytes: 4, Alignment: 2 (Halfword-aligned)
  ***** Mis-aligned memory read: Address: 0x200001A4, NumBytes: 4, Alignment: 2 (Halfword-aligned) -- Read from C cache (4 bytes @ 0x200001A4) - Data: 00 00 00 00  returns 0x04 (0000ms, 6637ms total)
T2B70 148:659 JLINK_ReadMemEx(0x200001B4, 0x0004 Bytes, ..., AccessWidth = 33554432)Mis-aligned memory read: Address: 0x200001B4, NumBytes: 4, Alignment: 2 (Halfword-aligned)
  ***** Mis-aligned memory read: Address: 0x200001B4, NumBytes: 4, Alignment: 2 (Halfword-aligned) -- Read from C cache (4 bytes @ 0x200001B4) - Data: 00 00 00 00  returns 0x04 (0001ms, 6638ms total)
T2B70 148:677 JLINK_ReadMemEx(0x20000230, 0x0004 Bytes, ..., AccessWidth = 33554432)Mis-aligned memory read: Address: 0x20000230, NumBytes: 4, Alignment: 2 (Halfword-aligned)
  ***** Mis-aligned memory read: Address: 0x20000230, NumBytes: 4, Alignment: 2 (Halfword-aligned) -- CPU_ReadMem(64 bytes @ 0x20000200) -- Updating C cache (64 bytes @ 0x20000200) -- Read from C cache (4 bytes @ 0x20000230) - Data: 3F 02 00 00  returns 0x04 (0001ms, 6639ms total)
T2B70 148:694 JLINK_ReadMemEx(0x200001B8, 0x0004 Bytes, ..., AccessWidth = 33554432)Mis-aligned memory read: Address: 0x200001B8, NumBytes: 4, Alignment: 2 (Halfword-aligned)
  ***** Mis-aligned memory read: Address: 0x200001B8, NumBytes: 4, Alignment: 2 (Halfword-aligned) -- Read from C cache (4 bytes @ 0x200001B8) - Data: 00 00 00 00  returns 0x04 (0000ms, 6639ms total)
T2B70 148:707 JLINK_ReadMemEx(0x200001BC, 0x0004 Bytes, ..., AccessWidth = 33554432)Mis-aligned memory read: Address: 0x200001BC, NumBytes: 4, Alignment: 2 (Halfword-aligned)
  ***** Mis-aligned memory read: Address: 0x200001BC, NumBytes: 4, Alignment: 2 (Halfword-aligned) -- Read from C cache (4 bytes @ 0x200001BC) - Data: 00 00 00 00  returns 0x04 (0000ms, 6639ms total)
T2B70 148:722 JLINK_ReadMemEx(0x200001C0, 0x0004 Bytes, ..., AccessWidth = 33554432)Mis-aligned memory read: Address: 0x200001C0, NumBytes: 4, Alignment: 2 (Halfword-aligned)
  ***** Mis-aligned memory read: Address: 0x200001C0, NumBytes: 4, Alignment: 2 (Halfword-aligned) -- CPU_ReadMem(64 bytes @ 0x200001C0) -- Updating C cache (64 bytes @ 0x200001C0) -- Read from C cache (4 bytes @ 0x200001C0) - Data: 00 00 00 00  returns 0x04 (0001ms, 6640ms total)
T2B70 148:756 JLINK_ReadMemEx(0x20000240, 0x0004 Bytes, ..., AccessWidth = 33554432)Mis-aligned memory read: Address: 0x20000240, NumBytes: 4, Alignment: 2 (Halfword-aligned)
  ***** Mis-aligned memory read: Address: 0x20000240, NumBytes: 4, Alignment: 2 (Halfword-aligned) -- CPU_ReadMem(64 bytes @ 0x20000240) -- Updating C cache (64 bytes @ 0x20000240) -- Read from C cache (4 bytes @ 0x20000240) - Data: 00 00 00 00  returns 0x04 (0001ms, 6641ms total)
T2B70 148:775 JLINK_ReadMemEx(0x20000244, 0x0004 Bytes, ..., AccessWidth = 33554432)Mis-aligned memory read: Address: 0x20000244, NumBytes: 4, Alignment: 2 (Halfword-aligned)
  ***** Mis-aligned memory read: Address: 0x20000244, NumBytes: 4, Alignment: 2 (Halfword-aligned) -- Read from C cache (4 bytes @ 0x20000244) - Data: 00 00 00 00  returns 0x04 (0000ms, 6641ms total)
T2B70 148:791 JLINK_ReadMemEx(0x20000248, 0x0004 Bytes, ..., AccessWidth = 33554432)Mis-aligned memory read: Address: 0x20000248, NumBytes: 4, Alignment: 2 (Halfword-aligned)
  ***** Mis-aligned memory read: Address: 0x20000248, NumBytes: 4, Alignment: 2 (Halfword-aligned) -- Read from C cache (4 bytes @ 0x20000248) - Data: 00 00 00 00  returns 0x04 (0000ms, 6641ms total)
T2B70 148:809 JLINK_ReadMemEx(0x2000024C, 0x0004 Bytes, ..., AccessWidth = 33554432)Mis-aligned memory read: Address: 0x2000024C, NumBytes: 4, Alignment: 2 (Halfword-aligned)
  ***** Mis-aligned memory read: Address: 0x2000024C, NumBytes: 4, Alignment: 2 (Halfword-aligned) -- Read from C cache (4 bytes @ 0x2000024C) - Data: 00 00 00 00  returns 0x04 (0000ms, 6641ms total)
T2B70 148:843 JLINK_ReadMemEx(0x20000250, 0x0004 Bytes, ..., AccessWidth = 33554432)Mis-aligned memory read: Address: 0x20000250, NumBytes: 4, Alignment: 2 (Halfword-aligned)
  ***** Mis-aligned memory read: Address: 0x20000250, NumBytes: 4, Alignment: 2 (Halfword-aligned) -- Read from C cache (4 bytes @ 0x20000250) - Data: CD CC 4C 40  returns 0x04 (0000ms, 6641ms total)
T2B70 148:920 JLINK_ReadMemEx(0x20000004, 0x0004 Bytes, ..., AccessWidth = 33554432)Mis-aligned memory read: Address: 0x20000004, NumBytes: 4, Alignment: 2 (Halfword-aligned)
  ***** Mis-aligned memory read: Address: 0x20000004, NumBytes: 4, Alignment: 2 (Halfword-aligned) -- CPU_ReadMem(64 bytes @ 0x20000000) -- Updating C cache (64 bytes @ 0x20000000) -- Read from C cache (4 bytes @ 0x20000004) - Data: 00 00 00 00  returns 0x04 (0001ms, 6642ms total)
T2B70 148:938 JLINK_ReadMemEx(0x20000000, 0x0004 Bytes, ..., AccessWidth = 33554432)Mis-aligned memory read: Address: 0x20000000, NumBytes: 4, Alignment: 2 (Halfword-aligned)
  ***** Mis-aligned memory read: Address: 0x20000000, NumBytes: 4, Alignment: 2 (Halfword-aligned) -- Read from C cache (4 bytes @ 0x20000000) - Data: 00 00 00 00  returns 0x04 (0000ms, 6642ms total)
T2B70 148:993 JLINK_ReadMemEx(0x2000023C, 0x0004 Bytes, ..., AccessWidth = 33554432)Mis-aligned memory read: Address: 0x2000023C, NumBytes: 4, Alignment: 2 (Halfword-aligned)
  ***** Mis-aligned memory read: Address: 0x2000023C, NumBytes: 4, Alignment: 2 (Halfword-aligned) -- Read from C cache (4 bytes @ 0x2000023C) - Data: 66 66 A6 40  returns 0x04 (0000ms, 6642ms total)
T2B70 149:010 JLINK_ReadMemEx(0x20000158, 0x0004 Bytes, ..., AccessWidth = 33554432)Mis-aligned memory read: Address: 0x20000158, NumBytes: 4, Alignment: 2 (Halfword-aligned)
  ***** Mis-aligned memory read: Address: 0x20000158, NumBytes: 4, Alignment: 2 (Halfword-aligned) -- Read from C cache (4 bytes @ 0x20000158) - Data: 00 00 00 00  returns 0x04 (0000ms, 6642ms total)
T2B70 149:028 JLINK_ReadMemEx(0x2000015C, 0x0004 Bytes, ..., AccessWidth = 33554432)Mis-aligned memory read: Address: 0x2000015C, NumBytes: 4, Alignment: 2 (Halfword-aligned)
  ***** Mis-aligned memory read: Address: 0x2000015C, NumBytes: 4, Alignment: 2 (Halfword-aligned) -- Read from C cache (4 bytes @ 0x2000015C) - Data: 00 00 00 00  returns 0x04 (0000ms, 6642ms total)
T2B70 149:047 JLINK_ReadMemEx(0x20000160, 0x0004 Bytes, ..., AccessWidth = 33554432)Mis-aligned memory read: Address: 0x20000160, NumBytes: 4, Alignment: 2 (Halfword-aligned)
  ***** Mis-aligned memory read: Address: 0x20000160, NumBytes: 4, Alignment: 2 (Halfword-aligned) -- Read from C cache (4 bytes @ 0x20000160) - Data: 00 00 00 00  returns 0x04 (0000ms, 6642ms total)
T2B70 149:065 JLINK_ReadMemEx(0x20000164, 0x0004 Bytes, ..., AccessWidth = 33554432)Mis-aligned memory read: Address: 0x20000164, NumBytes: 4, Alignment: 2 (Halfword-aligned)
  ***** Mis-aligned memory read: Address: 0x20000164, NumBytes: 4, Alignment: 2 (Halfword-aligned) -- Read from C cache (4 bytes @ 0x20000164) - Data: 00 00 00 00  returns 0x04 (0000ms, 6642ms total)
T2B70 149:087 JLINK_ReadMemEx(0x20000154, 0x0004 Bytes, ..., AccessWidth = 33554432)Mis-aligned memory read: Address: 0x20000154, NumBytes: 4, Alignment: 2 (Halfword-aligned)
  ***** Mis-aligned memory read: Address: 0x20000154, NumBytes: 4, Alignment: 2 (Halfword-aligned) -- Read from C cache (4 bytes @ 0x20000154) - Data: 50 C3 00 00  returns 0x04 (0000ms, 6642ms total)
T2B70 149:106 JLINK_ReadMemEx(0x2000016C, 0x0004 Bytes, ..., AccessWidth = 33554432)Mis-aligned memory read: Address: 0x2000016C, NumBytes: 4, Alignment: 2 (Halfword-aligned)
  ***** Mis-aligned memory read: Address: 0x2000016C, NumBytes: 4, Alignment: 2 (Halfword-aligned) -- Read from C cache (4 bytes @ 0x2000016C) - Data: 00 00 00 00  returns 0x04 (0001ms, 6643ms total)
T2B70 149:124 JLINK_ReadMemEx(0x20000170, 0x0004 Bytes, ..., AccessWidth = 33554432)Mis-aligned memory read: Address: 0x20000170, NumBytes: 4, Alignment: 2 (Halfword-aligned)
  ***** Mis-aligned memory read: Address: 0x20000170, NumBytes: 4, Alignment: 2 (Halfword-aligned) -- Read from C cache (4 bytes @ 0x20000170) - Data: 00 00 00 00  returns 0x04 (0000ms, 6643ms total)
T2B70 149:142 JLINK_ReadMemEx(0x20000168, 0x0004 Bytes, ..., AccessWidth = 33554432)Mis-aligned memory read: Address: 0x20000168, NumBytes: 4, Alignment: 2 (Halfword-aligned)
  ***** Mis-aligned memory read: Address: 0x20000168, NumBytes: 4, Alignment: 2 (Halfword-aligned) -- Read from C cache (4 bytes @ 0x20000168) - Data: 00 00 00 00  returns 0x04 (0000ms, 6643ms total)
T2B70 149:161 JLINK_ReadMemEx(0x200001A0, 0x0004 Bytes, ..., AccessWidth = 33554432)Mis-aligned memory read: Address: 0x200001A0, NumBytes: 4, Alignment: 2 (Halfword-aligned)
  ***** Mis-aligned memory read: Address: 0x200001A0, NumBytes: 4, Alignment: 2 (Halfword-aligned) -- Read from C cache (4 bytes @ 0x200001A0) - Data: E8 03 00 00  returns 0x04 (0000ms, 6643ms total)
T2B70 149:180 JLINK_ReadMemEx(0x2000019C, 0x0004 Bytes, ..., AccessWidth = 33554432)Mis-aligned memory read: Address: 0x2000019C, NumBytes: 4, Alignment: 2 (Halfword-aligned)
  ***** Mis-aligned memory read: Address: 0x2000019C, NumBytes: 4, Alignment: 2 (Halfword-aligned) -- Read from C cache (4 bytes @ 0x2000019C) - Data: 00 00 00 00  returns 0x04 (0000ms, 6643ms total)
T2B70 149:198 JLINK_ReadMemEx(0x20000178, 0x0004 Bytes, ..., AccessWidth = 33554432)Mis-aligned memory read: Address: 0x20000178, NumBytes: 4, Alignment: 2 (Halfword-aligned)
  ***** Mis-aligned memory read: Address: 0x20000178, NumBytes: 4, Alignment: 2 (Halfword-aligned) -- Read from C cache (4 bytes @ 0x20000178) - Data: 10 27 00 00  returns 0x04 (0003ms, 6646ms total)
T2B70 149:219 JLINK_ReadMemEx(0x2000017C, 0x0004 Bytes, ..., AccessWidth = 33554432)Mis-aligned memory read: Address: 0x2000017C, NumBytes: 4, Alignment: 2 (Halfword-aligned)
  ***** Mis-aligned memory read: Address: 0x2000017C, NumBytes: 4, Alignment: 2 (Halfword-aligned) -- Read from C cache (4 bytes @ 0x2000017C) - Data: 10 27 00 00  returns 0x04 (0000ms, 6646ms total)
T2B70 149:237 JLINK_ReadMemEx(0x20000180, 0x0004 Bytes, ..., AccessWidth = 33554432)Mis-aligned memory read: Address: 0x20000180, NumBytes: 4, Alignment: 2 (Halfword-aligned)
  ***** Mis-aligned memory read: Address: 0x20000180, NumBytes: 4, Alignment: 2 (Halfword-aligned) -- Read from C cache (4 bytes @ 0x20000180) - Data: 10 27 00 00  returns 0x04 (0000ms, 6646ms total)
T2B70 149:255 JLINK_ReadMemEx(0x20000184, 0x0004 Bytes, ..., AccessWidth = 33554432)Mis-aligned memory read: Address: 0x20000184, NumBytes: 4, Alignment: 2 (Halfword-aligned)
  ***** Mis-aligned memory read: Address: 0x20000184, NumBytes: 4, Alignment: 2 (Halfword-aligned) -- Read from C cache (4 bytes @ 0x20000184) - Data: 10 27 00 00  returns 0x04 (0000ms, 6646ms total)
T2B70 149:274 JLINK_ReadMemEx(0x20000194, 0x0004 Bytes, ..., AccessWidth = 33554432)Mis-aligned memory read: Address: 0x20000194, NumBytes: 4, Alignment: 2 (Halfword-aligned)
  ***** Mis-aligned memory read: Address: 0x20000194, NumBytes: 4, Alignment: 2 (Halfword-aligned) -- Read from C cache (4 bytes @ 0x20000194) - Data: 04 00 00 00  returns 0x04 (0000ms, 6646ms total)
T2B70 149:293 JLINK_ReadMemEx(0x20000198, 0x0004 Bytes, ..., AccessWidth = 33554432)Mis-aligned memory read: Address: 0x20000198, NumBytes: 4, Alignment: 2 (Halfword-aligned)
  ***** Mis-aligned memory read: Address: 0x20000198, NumBytes: 4, Alignment: 2 (Halfword-aligned) -- Read from C cache (4 bytes @ 0x20000198) - Data: A0 0F 00 00  returns 0x04 (0000ms, 6646ms total)
T2B70 149:312 JLINK_ReadMemEx(0x20000174, 0x0004 Bytes, ..., AccessWidth = 33554432)Mis-aligned memory read: Address: 0x20000174, NumBytes: 4, Alignment: 2 (Halfword-aligned)
  ***** Mis-aligned memory read: Address: 0x20000174, NumBytes: 4, Alignment: 2 (Halfword-aligned) -- Read from C cache (4 bytes @ 0x20000174) - Data: 00 00 00 00  returns 0x04 (0000ms, 6646ms total)
T2B70 149:350 JLINK_ReadMemEx(0x20000188, 0x0004 Bytes, ..., AccessWidth = 33554432)Mis-aligned memory read: Address: 0x20000188, NumBytes: 4, Alignment: 2 (Halfword-aligned)
  ***** Mis-aligned memory read: Address: 0x20000188, NumBytes: 4, Alignment: 2 (Halfword-aligned) -- Read from C cache (4 bytes @ 0x20000188) - Data: 00 00 00 00  returns 0x04 (0000ms, 6646ms total)
T2B70 149:369 JLINK_ReadMemEx(0x2000018C, 0x0004 Bytes, ..., AccessWidth = 33554432)Mis-aligned memory read: Address: 0x2000018C, NumBytes: 4, Alignment: 2 (Halfword-aligned)
  ***** Mis-aligned memory read: Address: 0x2000018C, NumBytes: 4, Alignment: 2 (Halfword-aligned) -- Read from C cache (4 bytes @ 0x2000018C) - Data: 01 00 00 00  returns 0x04 (0000ms, 6646ms total)
T2B70 149:427 JLINK_ReadMemEx(0x20000378, 0x0008 Bytes, ..., AccessWidth = 33554432)Mis-aligned memory read: Address: 0x20000378, NumBytes: 8, Alignment: 2 (Halfword-aligned)
  ***** Mis-aligned memory read: Address: 0x20000378, NumBytes: 8, Alignment: 2 (Halfword-aligned) -- CPU_ReadMem(64 bytes @ 0x20000340) -- Updating C cache (64 bytes @ 0x20000340) -- Read from C cache (8 bytes @ 0x20000378) - Data: 00 00 00 00 00 00 00 00  returns 0x08 (0001ms, 6647ms total)
T2B70 149:429 JLINK_ReadMemEx(0x20000380, 0x0008 Bytes, ..., AccessWidth = 33554432)Mis-aligned memory read: Address: 0x20000380, NumBytes: 8, Alignment: 2 (Halfword-aligned)
  ***** Mis-aligned memory read: Address: 0x20000380, NumBytes: 8, Alignment: 2 (Halfword-aligned) -- CPU_ReadMem(64 bytes @ 0x20000380) -- Updating C cache (64 bytes @ 0x20000380) -- Read from C cache (8 bytes @ 0x20000380) - Data: 00 00 00 00 00 00 00 00  returns 0x08 (0001ms, 6648ms total)
T2B70 149:433 JLINK_ReadMemEx(0x20000130, 0x0004 Bytes, ..., AccessWidth = 33554432)Mis-aligned memory read: Address: 0x20000130, NumBytes: 4, Alignment: 2 (Halfword-aligned)
  ***** Mis-aligned memory read: Address: 0x20000130, NumBytes: 4, Alignment: 2 (Halfword-aligned) -- Read from C cache (4 bytes @ 0x20000130) - Data: 00 00 C8 42  returns 0x04 (0003ms, 6651ms total)
T2B70 149:438 JLINK_ReadMemEx(0x20000134, 0x0004 Bytes, ..., AccessWidth = 33554432)Mis-aligned memory read: Address: 0x20000134, NumBytes: 4, Alignment: 2 (Halfword-aligned)
  ***** Mis-aligned memory read: Address: 0x20000134, NumBytes: 4, Alignment: 2 (Halfword-aligned) -- Read from C cache (4 bytes @ 0x20000134) - Data: 00 00 F0 41  returns 0x04 (0000ms, 6651ms total)
T2B70 149:453 JLINK_ReadMemEx(0x200137E8, 0x0002 Bytes, ..., AccessWidth = 33554432)Mis-aligned memory read: Address: 0x200137E8, NumBytes: 2, Alignment: 2 (Halfword-aligned)
  ***** Mis-aligned memory read: Address: 0x200137E8, NumBytes: 2, Alignment: 2 (Halfword-aligned) -- CPU_ReadMem(64 bytes @ 0x200137C0) -- Updating C cache (64 bytes @ 0x200137C0) -- Read from C cache (2 bytes @ 0x200137E8) - Data: 00 00  returns 0x02 (0001ms, 6652ms total)
T2B70 149:455 JLINK_ReadMemEx(0x20013924, 0x0002 Bytes, ..., AccessWidth = 33554432)Mis-aligned memory read: Address: 0x20013924, NumBytes: 2, Alignment: 2 (Halfword-aligned)
  ***** Mis-aligned memory read: Address: 0x20013924, NumBytes: 2, Alignment: 2 (Halfword-aligned) -- CPU_ReadMem(64 bytes @ 0x20013900) -- Updating C cache (64 bytes @ 0x20013900) -- Read from C cache (2 bytes @ 0x20013924) - Data: 00 00  returns 0x02 (0002ms, 6654ms total)
T2B70 149:464 JLINK_ReadMemEx(0x20000108, 0x0004 Bytes, ..., AccessWidth = 33554432)Mis-aligned memory read: Address: 0x20000108, NumBytes: 4, Alignment: 2 (Halfword-aligned)
  ***** Mis-aligned memory read: Address: 0x20000108, NumBytes: 4, Alignment: 2 (Halfword-aligned) -- Read from C cache (4 bytes @ 0x20000108) - Data: 87 00 00 00  returns 0x04 (0000ms, 6654ms total)
T2B70 149:474 JLINK_ReadMemEx(0x2000010C, 0x0004 Bytes, ..., AccessWidth = 33554432)Mis-aligned memory read: Address: 0x2000010C, NumBytes: 4, Alignment: 2 (Halfword-aligned)
  ***** Mis-aligned memory read: Address: 0x2000010C, NumBytes: 4, Alignment: 2 (Halfword-aligned) -- Read from C cache (4 bytes @ 0x2000010C) - Data: 0A 00 00 00  returns 0x04 (0000ms, 6654ms total)
T2B70 149:492 JLINK_ReadMemEx(0x2000039E, 0x0002 Bytes, ..., AccessWidth = 33554432)Mis-aligned memory read: Address: 0x2000039E, NumBytes: 2, Alignment: 2 (Halfword-aligned)
  ***** Mis-aligned memory read: Address: 0x2000039E, NumBytes: 2, Alignment: 2 (Halfword-aligned) -- Read from C cache (2 bytes @ 0x2000039E) - Data: 00 00  returns 0x02 (0000ms, 6654ms total)
T2688 149:589 JLINK_ReadMemEx(0x08003AB8, 0x0002 Bytes, ..., AccessWidth = 33554432)Mis-aligned memory read: Address: 0x08003AB8, NumBytes: 2, Alignment: 2 (Halfword-aligned)
  ***** Mis-aligned memory read: Address: 0x08003AB8, NumBytes: 2, Alignment: 2 (Halfword-aligned) -- Read from C cache (2 bytes @ 0x08003AB8) - Data: 09 48  returns 0x02 (0000ms, 6654ms total)
T2688 149:589 JLINK_SetBPEx(Addr = 0x080003E2, Type = 0xFFFFFFF2)  returns 0x00000001 (0000ms, 6654ms total)
T2688 149:589 JLINK_ReadMemU32(0xE0001004, 0x0001 Items, ...) -- CPU_ReadMem(4 bytes @ 0xE0001004) - Data: 9A ED 00 00  returns 0x01 (0001ms, 6655ms total)
T2688 149:590 JLINK_WriteU32(0xE0001004, 0x000003FF) -- CPU_WriteMem(4 bytes @ 0xE0001004)  returns 0x00 (0001ms, 6656ms total)
T2688 149:591 JLINK_WriteU32(0xE0001000, 0x0041061F) -- CPU_WriteMem(4 bytes @ 0xE0001000)  returns 0x00 (0000ms, 6656ms total)
T2688 149:591 JLINK_WriteU32(0xE0000E80, 0x0001000F) -- CPU_WriteMem(4 bytes @ 0xE0000E80)  returns 0x00 (0001ms, 6657ms total)
T2688 149:592 JLINK_SWO_Control(JLINKARM_SWO_CMD_GET_NUM_BYTES, ...)  returns 0x00 (0000ms, 6657ms total)
T2688 149:592 JLINK_Go() -- CPU_WriteMem(4 bytes @ 0xE0002000) -- CPU_WriteMem(4 bytes @ 0xE0002008) -- CPU_WriteMem(4 bytes @ 0xE000200C) -- CPU_WriteMem(4 bytes @ 0xE0002010) -- CPU_WriteMem(4 bytes @ 0xE0002014) -- CPU_WriteMem(4 bytes @ 0xE0002018) -- CPU_WriteMem(4 bytes @ 0xE000201C) -- CPU_WriteMem(4 bytes @ 0xE0001004) (0006ms, 6663ms total)
T2688 149:598 JLINK_WriteU32(0xE0001000, 0x0001061F) -- CPU is running -- CPU_WriteMem(4 bytes @ 0xE0001000)  returns 0x00 (0001ms, 6664ms total)
T2688 149:700 JLINK_SWO_Read(..., Offset = 0x00, NumBytes = 0x400000) - Data:  NumBytesRead = 0x00 (0000ms, 6664ms total)
T2688 149:702 JLINK_SWO_Control(JLINKARM_SWO_CMD_FLUSH, ...)  returns 0x00 (0000ms, 6664ms total)
T2688 149:702 JLINK_IsHalted()  returns TRUE (0002ms, 6666ms total)
T2688 149:704 JLINK_Halt()  returns 0x00 (0000ms, 6664ms total)
T2688 149:704 JLINK_IsHalted()  returns TRUE (0000ms, 6664ms total)
T2688 149:704 JLINK_IsHalted()  returns TRUE (0000ms, 6664ms total)
T2688 149:704 JLINK_IsHalted()  returns TRUE (0000ms, 6664ms total)
T2688 149:704 JLINK_ReadReg(R15 (PC))  returns 0x080003E2 (0000ms, 6664ms total)
T2688 149:704 JLINK_ReadReg(XPSR)  returns 0x61000000 (0000ms, 6664ms total)
T2688 149:704 JLINK_SWO_Read(..., Offset = 0x00, NumBytes = 0x400000) - Data:  NumBytesRead = 0x00 (0000ms, 6664ms total)
T2688 149:706 JLINK_SWO_Control(JLINKARM_SWO_CMD_FLUSH, ...)  returns 0x00 (0000ms, 6664ms total)
T2688 149:706 JLINK_ClrBPEx(BPHandle = 0x00000001)  returns 0x00 (0000ms, 6664ms total)
T2688 149:706 JLINK_ReadMemU32(0xE000ED30, 0x0001 Items, ...) -- CPU_ReadMem(4 bytes @ 0xE000ED30) - Data: 02 00 00 00  returns 0x01 (0000ms, 6664ms total)
T2688 149:706 JLINK_ReadMemU32(0xE0001028, 0x0001 Items, ...) -- CPU_ReadMem(4 bytes @ 0xE0001028) - Data: 00 00 00 00  returns 0x01 (0000ms, 6664ms total)
T2688 149:706 JLINK_ReadMemU32(0xE0001038, 0x0001 Items, ...) -- CPU_ReadMem(4 bytes @ 0xE0001038) - Data: 00 02 00 00  returns 0x01 (0001ms, 6665ms total)
T2688 149:707 JLINK_ReadMemU32(0xE0001048, 0x0001 Items, ...) -- CPU_ReadMem(4 bytes @ 0xE0001048) - Data: 00 00 00 00  returns 0x01 (0001ms, 6666ms total)
T2688 149:708 JLINK_ReadMemU32(0xE0001058, 0x0001 Items, ...) -- CPU_ReadMem(4 bytes @ 0xE0001058) - Data: 00 00 00 00  returns 0x01 (0000ms, 6666ms total)
T2688 149:709 JLINK_ReadReg(R0)  returns 0x20014488 (0000ms, 6666ms total)
T2688 149:709 JLINK_ReadReg(R1)  returns 0x20014688 (0000ms, 6666ms total)
T2688 149:709 JLINK_ReadReg(R2)  returns 0x20014688 (0000ms, 6666ms total)
T2688 149:709 JLINK_ReadReg(R3)  returns 0x20014688 (0000ms, 6666ms total)
T2688 149:709 JLINK_ReadReg(R4)  returns 0x00000000 (0000ms, 6666ms total)
T2688 149:709 JLINK_ReadReg(R5)  returns 0x20014424 (0000ms, 6666ms total)
T2688 149:709 JLINK_ReadReg(R6)  returns 0x00000000 (0000ms, 6666ms total)
T2688 149:709 JLINK_ReadReg(R7)  returns 0x00000000 (0000ms, 6666ms total)
T2688 149:709 JLINK_ReadReg(R8)  returns 0x00000000 (0000ms, 6666ms total)
T2688 149:709 JLINK_ReadReg(R9)  returns 0x00000000 (0000ms, 6666ms total)
T2688 149:709 JLINK_ReadReg(R10)  returns 0x080164BC (0000ms, 6666ms total)
T2688 149:709 JLINK_ReadReg(R11)  returns 0x00000000 (0000ms, 6666ms total)
T2688 149:709 JLINK_ReadReg(R12)  returns 0x20014498 (0000ms, 6666ms total)
T2688 149:709 JLINK_ReadReg(R13 (SP))  returns 0x20014A88 (0000ms, 6666ms total)
T2688 149:709 JLINK_ReadReg(R14)  returns 0x080002AF (0000ms, 6666ms total)
T2688 149:709 JLINK_ReadReg(R15 (PC))  returns 0x080003E2 (0000ms, 6666ms total)
T2688 149:709 JLINK_ReadReg(XPSR)  returns 0x61000000 (0000ms, 6666ms total)
T2688 149:709 JLINK_ReadReg(MSP)  returns 0x20014A88 (0000ms, 6666ms total)
T2688 149:709 JLINK_ReadReg(PSP)  returns 0x00000000 (0000ms, 6666ms total)
T2688 149:709 JLINK_ReadReg(CFBP)  returns 0x04000000 (0000ms, 6666ms total)
T2688 149:709 JLINK_ReadReg(FPSCR)  returns 0x00000000 (0003ms, 6669ms total)
T2688 149:712 JLINK_ReadReg(FPS0)  returns 0x00000000 (0000ms, 6669ms total)
T2688 149:712 JLINK_ReadReg(FPS1)  returns 0x00000000 (0000ms, 6669ms total)
T2688 149:712 JLINK_ReadReg(FPS2)  returns 0x00000000 (0000ms, 6669ms total)
T2688 149:712 JLINK_ReadReg(FPS3)  returns 0x00000000 (0000ms, 6669ms total)
T2688 149:712 JLINK_ReadReg(FPS4)  returns 0x00000000 (0000ms, 6669ms total)
T2688 149:712 JLINK_ReadReg(FPS5)  returns 0x00000000 (0000ms, 6669ms total)
T2688 149:712 JLINK_ReadReg(FPS6)  returns 0x00000000 (0000ms, 6669ms total)
T2688 149:712 JLINK_ReadReg(FPS7)  returns 0x00000000 (0000ms, 6669ms total)
T2688 149:712 JLINK_ReadReg(FPS8)  returns 0x00000000 (0000ms, 6669ms total)
T2688 149:712 JLINK_ReadReg(FPS9)  returns 0x00000000 (0000ms, 6669ms total)
T2688 149:712 JLINK_ReadReg(FPS10)  returns 0x00000000 (0000ms, 6669ms total)
T2688 149:712 JLINK_ReadReg(FPS11)  returns 0x00000000 (0000ms, 6669ms total)
T2688 149:712 JLINK_ReadReg(FPS12)  returns 0x00000000 (0000ms, 6669ms total)
T2688 149:712 JLINK_ReadReg(FPS13)  returns 0x00000000 (0000ms, 6669ms total)
T2688 149:712 JLINK_ReadReg(FPS14)  returns 0x00000000 (0000ms, 6669ms total)
T2688 149:713 JLINK_ReadReg(FPS15)  returns 0x00000000 (0000ms, 6669ms total)
T2688 149:713 JLINK_ReadReg(FPS16)  returns 0x00000000 (0000ms, 6669ms total)
T2688 149:713 JLINK_ReadReg(FPS17)  returns 0x00000000 (0000ms, 6669ms total)
T2688 149:713 JLINK_ReadReg(FPS18)  returns 0x00000000 (0000ms, 6669ms total)
T2688 149:713 JLINK_ReadReg(FPS19)  returns 0x00000000 (0000ms, 6669ms total)
T2688 149:713 JLINK_ReadReg(FPS20)  returns 0x00000000 (0000ms, 6669ms total)
T2688 149:713 JLINK_ReadReg(FPS21)  returns 0x00000000 (0000ms, 6669ms total)
T2688 149:713 JLINK_ReadReg(FPS22)  returns 0x00000000 (0000ms, 6669ms total)
T2688 149:713 JLINK_ReadReg(FPS23)  returns 0x00000000 (0000ms, 6669ms total)
T2688 149:713 JLINK_ReadReg(FPS24)  returns 0x00000000 (0000ms, 6669ms total)
T2688 149:713 JLINK_ReadReg(FPS25)  returns 0x00000000 (0000ms, 6669ms total)
T2688 149:713 JLINK_ReadReg(FPS26)  returns 0x00000000 (0000ms, 6669ms total)
T2688 149:713 JLINK_ReadReg(FPS27)  returns 0x00000000 (0000ms, 6669ms total)
T2688 149:713 JLINK_ReadReg(FPS28)  returns 0x00000000 (0000ms, 6669ms total)
T2688 149:713 JLINK_ReadReg(FPS29)  returns 0x00000000 (0000ms, 6669ms total)
T2688 149:713 JLINK_ReadReg(FPS30)  returns 0x00000000 (0000ms, 6669ms total)
T2688 149:713 JLINK_ReadReg(FPS31)  returns 0x00000000 (0000ms, 6669ms total)
T2B70 149:715 JLINK_ReadMemEx(0x20000124, 0x0004 Bytes, ..., AccessWidth = 33554432)Mis-aligned memory read: Address: 0x20000124, NumBytes: 4, Alignment: 2 (Halfword-aligned)
  ***** Mis-aligned memory read: Address: 0x20000124, NumBytes: 4, Alignment: 2 (Halfword-aligned) -- CPU_ReadMem(64 bytes @ 0x20000100) -- Updating C cache (64 bytes @ 0x20000100) -- Read from C cache (4 bytes @ 0x20000124) - Data: 38 00 00 00  returns 0x04 (0000ms, 6669ms total)
T2B70 149:716 JLINK_ReadMemEx(0x20000516, 0x0020 Bytes, ..., AccessWidth = 33554432)Mis-aligned memory read: Address: 0x20000516, NumBytes: 32, Alignment: 2 (Halfword-aligned)
  ***** Mis-aligned memory read: Address: 0x20000516, NumBytes: 32, Alignment: 2 (Halfword-aligned) -- CPU_ReadMem(64 bytes @ 0x20000500) -- Updating C cache (64 bytes @ 0x20000500) -- Read from C cache (32 bytes @ 0x20000516) - Data: 00 00 00 00 00 00 00 00 00 00 00 00 00 00 00 00 ...  returns 0x20 (0000ms, 6669ms total)
T2B70 149:717 JLINK_ReadMemEx(0x200004FC, 0x000D Bytes, ..., AccessWidth = 33554432)Mis-aligned memory read: Address: 0x200004FC, NumBytes: 13, Alignment: 2 (Halfword-aligned)
  ***** Mis-aligned memory read: Address: 0x200004FC, NumBytes: 13, Alignment: 2 (Halfword-aligned) -- CPU_ReadMem(64 bytes @ 0x200004C0) -- Updating C cache (64 bytes @ 0x200004C0) -- Read from C cache (13 bytes @ 0x200004FC) - Data: 00 00 00 00 00 00 00 00 00 00 00 00 00  returns 0x0D (0000ms, 6669ms total)
T2B70 149:717 JLINK_ReadMemEx(0x20000509, 0x000D Bytes, ..., AccessWidth = 33554432)Mis-aligned memory read: Address: 0x20000509, NumBytes: 13, Alignment: 2 (Halfword-aligned)
  ***** Mis-aligned memory read: Address: 0x20000509, NumBytes: 13, Alignment: 2 (Halfword-aligned) -- Read from C cache (13 bytes @ 0x20000509) - Data: 00 00 00 00 00 00 00 00 00 00 00 00 00  returns 0x0D (0000ms, 6669ms total)
T2B70 149:717 JLINK_ReadMemEx(0x20000146, 0x0002 Bytes, ..., AccessWidth = 33554432)Mis-aligned memory read: Address: 0x20000146, NumBytes: 2, Alignment: 2 (Halfword-aligned)
  ***** Mis-aligned memory read: Address: 0x20000146, NumBytes: 2, Alignment: 2 (Halfword-aligned) -- CPU_ReadMem(64 bytes @ 0x20000140) -- Updating C cache (64 bytes @ 0x20000140) -- Read from C cache (2 bytes @ 0x20000146) - Data: 00 00  returns 0x02 (0001ms, 6670ms total)
T2B70 149:718 JLINK_ReadMemEx(0x2000014C, 0x0001 Bytes, ..., AccessWidth = 33554432)Mis-aligned memory read: Address: 0x2000014C, NumBytes: 1, Alignment: 2 (Halfword-aligned)
  ***** Mis-aligned memory read: Address: 0x2000014C, NumBytes: 1, Alignment: 2 (Halfword-aligned) -- Read from C cache (1 bytes @ 0x2000014C) - Data: 01  returns 0x01 (0000ms, 6670ms total)
T2B70 149:718 JLINK_ReadMemEx(0x20000148, 0x0002 Bytes, ..., AccessWidth = 33554432)Mis-aligned memory read: Address: 0x20000148, NumBytes: 2, Alignment: 2 (Halfword-aligned)
  ***** Mis-aligned memory read: Address: 0x20000148, NumBytes: 2, Alignment: 2 (Halfword-aligned) -- Read from C cache (2 bytes @ 0x20000148) - Data: 00 00  returns 0x02 (0000ms, 6670ms total)
